#IC #spec 
# 握手机制
1. 功能：作为一种**双向流控机制**，`VALID/READY` 机制可以使发送/接收双方都有能力控制传输速率。
	1. **发送方**置高 **`VALID`** 信号表示发送方已经将数据，地址或者控制信息已经就绪，并保持于消息总线上。
	2. **接收方**置高 **`READY`** 信号表示接收方已经做好接收的准备。
	3. 当双方的 `VALID/READY` 信号同时为高，在时钟 `ACLK` 上升沿，完成一次数据传输。所有数据传输完毕后，双方同时置低自己的信号。
	4. **双向流控**机制，指的是发送方通过置起 `VALID` 信号控制发送的时机与速度，接收方也可以通过 `READY` 信号的置起与否控制接收速度。
2. `VALID/READY` 三种情况：
	1. `VLIAD`信号先到达：发送方准备好传输数据，等待接收方相应；
	2. `READY`信号先到达：接收方在空闲状态下时，可以选择拉高`READY`；
	3. 两者同时到达：下个周期就可以拉低信号；
3. 使用要求：
	1. 发送方的`VALID`不能够把接收方的`READY`信号做一个组合逻辑生成`VALID`信号，不然有可能造成死锁的状况。原文`On master and slave interfaces, there must be no combinatorial paths between input and output signals`；
	2. READY 信号原则上由接收方自身的接收状况以及 VALID 信号控制。（或者仅由接收方自身的接收状况决定）协议中没有规定 READY 信号的默认状态，即未进行传输时的电平状态（default value）。 
	3. 协议建议 AW/AR READY 信号的默认电平为高电平。若默认电平为低，则每次传输至少需要 2 个周期才能完成，第一个周期置高 VALID 信号，第二个周期从机才会置高 READY 信号。相当于每次传输增加 1 个周期时间开销，这在某些情况下会对传输效率有较大的影响。

# 五个独立通道
#### 通道功能
1. 读&写地址通道（ARC&AWC）：写入本次传输操作所需的地址和控制信息，读写操作都拥有各自的地址通道。
2. 读数据通道（RC）：读数据通道上包括从机发送给主机的读数据，以及从机对于本次读传输操作的回复。
3. 写数据通道（WC）：写数据通道用于将主机的写数据传输至从机，位宽和RC的数据位宽相同。
4. 写回复通道（R）：用于从机将写操作响应回复给主机。所有写传输操作都需要以写回复通道上接收写响应作为完成信号。注意⚠️：写回复是针对一次传输操作（transcation）。
#### 通道端口信号定义
参考AXI总线手册；

#### 通道间的关系
- 写回复必须在其所属传输的最后一个写数据完成后（write response must follow the last write transfer in the transaction）；
- 读数据必须在接收到读地址信号后产生；
- 通道间的握手需要满足通道间的握手依赖性(handshake dependencies)；

#### 握手依赖关系
- 图中的单头箭头表示：其**指向的信号**可以在箭头**起始信号**置起之前或之后置起（**无依赖**）；
- 图中的双头箭头表示：其**指向的信号**必须在箭头**起始信号**置起之后置起（指向信号**依赖**起始信号）；
##### 读传输
![[Pasted image 20240914153123.png]]
- 主机的 **ARVALID** 信号不能等待从机的 **ARREADY** 信号置起后才置起，反之可以
- 从机的 **ARREADY** 信号可以先于主机的 **ARVALID** 信号置起（如单头箭头所示）
- 从机的 **RVALID** 信号必须等待 **ARVALID** 和 **ARREADY** 信号均置起后置起（如两个双头箭头所示）
- 从机的 **RVALID** 信号不能等待主机的 **RREADY** 信号置起后才置起，反之可以
- 主机的 **RREADY** 信号可以在 **RVALID** 置起前置起，换句话说：无依赖关系（如单头箭头所示）
##### 写传输
![[Pasted image 20240914153520.png]]
- 从机 **BVALID** 信号有效需要等待 **AWVALID** 以及 **AWREADY** 信号置起，完成地址传输作为前提条件之一。
- AXI 协议并没有对写数据以及写地址通道中的握手信号先后顺序做出规定。因此，实现中数据可以先于地址完成握手。
# 传输事务架构
1. **AXI Brust**模式也就是突发传输：在一段时间中，连续地传输多个（地址相邻的）数据。
2. 与 AXI 传输相关的有三个概念，分别是 transfer(beat)、burst、transaction；
	1. 在 AXI 传输事务（Transaction）中，数据以突发传输（Burst）的形式组织。一次突发传输中可以包含一至多个数据（Transfer）。每个 transfer 因为使用一个周期，又被称为一拍数据（Beat）。
3. 注意：单次 burst 传输中的数据，其地址不能跨越 4KB 边界。
	1. 协议中之所以规定一个burst不能跨越4K边界是为了避免一笔burst交易访问两个slave（每个slave的地址空间是4K/1K对齐的）  
	2. 4K对齐最大原因是系统中定义一个page大小是4K，而所谓的4K边界是指低12bit为0的地址。 
#### 突发传输
![[Pasted image 20240914154718.png]]
##### AxLEN
- **突发传输长度** (burst length),指一次突发传输中包含的数据传输(transfer)数量，在协议中使用 AxLen 信号控制。
- 在 AXI4 中，INCR 类型最大支持长度为 256，其他类型最大长度为 16。
- 突发传输长度在不同的模式下有一些限制，包括：
	- 对于 WRAP 模式，突发传输长度仅能为2,4,8,16；
	- 在一次突发传输中，地址不能跨越一个 4KB 分区；
	- 一次突发传输不能在完成所有数据传输前提前结束（early termination）；
##### AxSIZE
- **突发传输宽度**(burst size),指传输中的数据位宽，具体地，是每周期传输数据的字节数量，在协议中使用 AXSIZE 信号控制。
- 突发传输数据宽度不能超过数据总线本身的位宽。而当数据总线位宽大于突发传输宽度时，将根据协议的相关规定，将数据在部分数据线上传输。
##### AxBURST
**突发传输类型**（AxBURST），类型共有 3 种，分别为 FIXED，INCR 以及 WRAP。
- **FIXED 类型**中， burst 中所有数据都使用**起始地址**。该模式适合对某个固定地址进行多次数据更新；
- **INCR 类型**最为常用，后续数据的地址在初始地址的基础上进行递增，递增幅度与传输宽度相同。适合对于 RAM 等通过地址映射（mapped memory）的存储介质进行读写操作。
- **WRAP 类型**比较特殊，首先根据起始地址得到绕回边界地址（wrap boundary）与最高地址。当前地址小于最高地址时，WRAP 与 INCR 类型完全相同，地址递增。但到递增后的地址到达最高地址后，地址直接回到绕回边界地址，再进行递增，就这样循环往复。最高地址由绕回边界地址计算得到：wrap boundary + （N_bytes x burst_len）
#### 读写数据结构
##### 窄位宽数据传输（Narrow Transfer）
- 当本次传输中数据位宽小于通道本身的数据位宽时，称为**窄位宽数据传输**，或者**窄传输**。
- 在窄位宽写传输中，主机需要告知从机数据通道中哪些字节是有效的，需要使用到写数据通道中的 WSTRB 信号。WSTRB 信号中的单个 bit 置起，表示对应位置上的字节有效，对应关系为：`WSTRB[n] 对应 WDATA[8n+7:8n]`效。
##### 字节不变性（Byte Invarience）
为了能够使大小端模式在存储中共存，AXI 协议设计了一种字节顺序恒定（Byte-invariant）的大小端传输方案。对于存储中包括多个字节的数据结构（单字节自然不存在大小端问题）：
- 无论大小端模式，每个数据结构存储空间的分配方式是相同的
- 该数据结构按照其大小端模式决定字节存储的地址顺序
- 在传输过程中不考虑数据结构的大小端，按照字节原先存储的顺序，原样传输并存放至对端
##### 非对齐传输（Unaligned Transfer）
1. AXI 协议支持地址非对齐的传输，允许突发传输的首字节地址，即起始地址与**突发传输位宽**不对齐。
2. 对于非对齐传输，主机会进行两项操作：
	- 即使起始地址非对齐，也保证**所有传输是对齐**的
	- 在首个 transfer 中增加填充数据，**将首次传输填充至对齐**，填充数据使用 WSTRB 信号标记为无效
3. 举个例子，总线位宽为 32bit 时，如果起始地址为 0x1002 ，则产生了非对齐现象。与 32bit 位宽总线对齐的地址需要能被 4 整除，即 `ADDR[1:0] = 2'b0`，初始传输地址为0x1000。
# 事务类型与属性
1. 读写传输事务类型：AxCACHE；
	1. 传输事务在整个系统中如何进行；
	2. 系统缓存对传输事务的操作；
2. AXI协议中存在两种从机：**存储从机**（Memory Slave）和**外设从机**（Peripheral Slave）；
	1. 传输事务主要用于存储从机，其**必须**支持所有的事务属性信号；
	2. 外设从机要求必须完成整个传输事务，哪怕存在不支持的某个事务属性信号；
3. 系统级缓存（system level cache）：提高整个系统访问外部存储的速度，可以当初L2 Cache；
#### 存储相关属性信号 AxCACHE
##### Bufferable
1. 当 `AxCACHE[0]` 置高时，表示该传输事务在传输至目的地的途中，可以被 interconnect 或者任意的 AXI 组件缓存，延迟若干个周期。一般应用于写传输事务。
##### Modifiable
1. 当` AxCACHE[1]` 置高时，表示传输过程中，该写传输事务的传输特性**可以改变**。
	1. 可改变：
		- 传输地址 AxADDR；
		- 突发传输位宽与长度 AxSIZE AxLEN；
		- 突发传输类型 AxBURST；
		- AxID常见于 interconnect 的输出；
		- AxQOS 等；
	2. 不可以改变：
		1. AxLOCK、AxPROT 信号是不可改变的。
		2. 此外两种情况下，传输事务的信号不能改变：
			- 自然地，如果修改后的传输事务地址超出了原地址的 4K 边界，那么这种修改是不被允许的
			- 第二种情况与原子操作有关，具体可以参见手册。
##### cache-allocate
与`AxCACHE[2:1]`编码相关：
- 当 2 比特为 2'b00 时，表示 CPU 指示该传输事务**无需**至 cache 中查找，**必须直接**从主存储中读取或者写入主存储。
- 当 2 比特不为 2'b00 时，先前的读写事务可能已经将该地址缓存与 cache 中，所以该传输事务**必须首先**在 cache 中查找，**缺失的情况下**再访问主存储。

#### 内存保护单元
- AxPROT![[Pasted image 20241112110608.png]]
	- 
#### 参考
- [ljgibbs：深入 AXI4 总线（四）传输事务属性（draft）](https://zhuanlan.zhihu.com/p/148813963)
- [ljgibbs：深入 AXI4 总线（五A）单机多传输事务场景](https://zhuanlan.zhihu.com/p/149071260)
- [ljgibbs：深入 AXI4 总线（五B）多主机传输事务场景](https://zhuanlan.zhihu.com/p/149112312)